
T2FC8 000:119 SEGGER J-Link V6.10i Log File (0000ms, 0041ms total)
T2FC8 000:119 DLL Compiled: Oct 25 2016 19:31:51 (0000ms, 0041ms total)
T2FC8 000:119 Logging started @ 2017-05-23 14:47 (0000ms, 0041ms total)
T2FC8 000:119 JLINK_SetWarnOutHandler(...) (0000ms, 0041ms total)
T2FC8 000:119 JLINK_OpenEx(...)
Firmware: J-Link ARM V8 compiled Nov 28 2014 13:44:46
Hardware: V8.00
S/N: 58001139
Feature(s): RDI,FlashDL,FlashBP,JFlashWEBSRV Webserver running on local port 19080 (0030ms, 0071ms total)
T2FC8 000:119   returns O.K. (0030ms, 0071ms total)
T2FC8 000:149 JLINK_SetErrorOutHandler(...) (0000ms, 0071ms total)
T2FC8 000:149 JLINK_ExecCommand("ProjectFile = "E:\U_20140219\GPM1638A0\Ä£½M\³ÌÊ½\GPM1638A0_OTP_release_E3\JLinkSettings.ini"", ...).   returns 0x00 (0137ms, 0208ms total)
T2FC8 000:287 JLINK_ExecCommand("Device = STM32F103VC", ...). Device "STM32F103VC" selected.  returns 0x00 (0005ms, 0213ms total)
T2FC8 000:292 JLINK_ExecCommand("DisableConnectionTimeout", ...).   returns 0x01 (0000ms, 0213ms total)
T2FC8 000:292 JLINK_GetHardwareVersion()  returns 0x13880 (0000ms, 0213ms total)
T2FC8 000:292 JLINK_GetDLLVersion()  returns 61009 (0000ms, 0213ms total)
T2FC8 000:292 JLINK_GetFirmwareString(...) (0000ms, 0213ms total)
T2FC8 000:299 JLINK_GetDLLVersion()  returns 61009 (0000ms, 0213ms total)
T2FC8 000:299 JLINK_GetCompileDateTime() (0000ms, 0213ms total)
T2FC8 000:301 JLINK_GetFirmwareString(...) (0000ms, 0213ms total)
T2FC8 000:303 JLINK_GetHardwareVersion()  returns 0x13880 (0000ms, 0213ms total)
T2FC8 000:308 JLINK_TIF_Select(JLINKARM_TIF_SWD)  returns 0x00 (0004ms, 0217ms total)
T2FC8 000:312 JLINK_SetSpeed(10000) (0001ms, 0218ms total)
T2FC8 000:313 JLINK_GetId() >0x108 TIF>Found SWD-DP with ID 0x1BA01477 >0x0D TIF> >0x28 TIF> >0x0D TIF> >0x28 TIF> >0x0D TIF> >0x28 TIF> >0x0D TIF> >0x28 TIF> >0x0D TIF> >0x21 TIF> >0x0D TIF> >0x28 TIF> >0x0D TIF> >0x28 TIF> >0x0D TIF> >0x28 TIF> >0x0D TIF> >0x21 TIF> >0x0D TIF> >0x21 TIF> >0x0D TIF> >0x28 TIF> >0x0D TIF> >0x21 TIF> >0x0D TIF> >0x21 TIF> >0x0D TIF> >0x28 TIF> >0x0D TIF> >0x21 TIF> >0x0D TIF> >0x21 TIF> >0x0D TIF> >0x28 TIF> >0x0D TIF> >0x21 TIF> >0x0D TIF> >0x21 TIF> >0x0D TIF>
 >0x28 TIF> >0x0D TIF> >0x21 TIF> >0x0D TIF> >0x21 TIF> >0x0D TIF> >0x28 TIF> >0x0D TIF> >0x21 TIF> >0x0D TIF> >0x21 TIF> >0x0D TIF> >0x28 TIF> >0x0D TIF> >0x21 TIF> >0x0D TIF> >0x21 TIF> >0x108 TIF>Found SWD-DP with ID 0x1BA01477 >0x0D TIF> >0x28 TIF> >0x0D TIF> >0x28 TIF> >0x0D TIF> >0x28 TIF> >0x0D TIF> >0x28 TIF> >0x0D TIF> >0x21 TIF> >0x0D TIF> >0x28 TIF> >0x0D TIF> >0x28 TIF> >0x0D TIF> >0x21 TIF> >0x0D TIF> >0x21 TIF> >0x0D TIF> >0x21 TIF>AP-IDR: 0x14770011, Type: AHB-AP >0x0D TIF> >0x28 TIF>
 >0x0D TIF> >0x28 TIF> >0x0D TIF> >0x28 TIF> >0x0D TIF> >0x21 TIF> >0x0D TIF> >0x21 TIF> >0x0D TIF> >0x28 TIF> >0x0D TIF> >0x21 TIF> >0x0D TIF> >0x21 TIF>Found Cortex-M3 r1p1, Little endian. -- CPU_ReadMem(4 bytes @ 0xE000EDF0) -- CPU_WriteMem(4 bytes @ 0xE000EDF0) -- CPU_ReadMem(4 bytes @ 0xE0002000)FPUnit: 6 code (BP) slots and 2 literal slots -- CPU_ReadMem(4 bytes @ 0xE000EDFC) -- CPU_WriteMem(4 bytes @ 0xE000EDFC) -- CPU_ReadMem(4 bytes @ 0xE0001000) -- CPU_WriteMem(4 bytes @ 0xE0001000)
 -- CPU_ReadMem(4 bytes @ 0xE000ED88) -- CPU_WriteMem(4 bytes @ 0xE000ED88) -- CPU_ReadMem(4 bytes @ 0xE000ED88) -- CPU_WriteMem(4 bytes @ 0xE000ED88)CoreSight components:ROMTbl 0 @ E00FF000 -- CPU_ReadMem(16 bytes @ 0xE00FF000) -- CPU_ReadMem(16 bytes @ 0xE000EFF0) -- CPU_ReadMem(16 bytes @ 0xE000EFE0)ROMTbl 0 [0]: FFF0F000, CID: B105E00D, PID: 001BB000 SCS -- CPU_ReadMem(16 bytes @ 0xE0001FF0) -- CPU_ReadMem(16 bytes @ 0xE0001FE0)ROMTbl 0 [1]: FFF02000, CID: B105E00D, PID: 001BB002 DWT
 -- CPU_ReadMem(16 bytes @ 0xE0002FF0) -- CPU_ReadMem(16 bytes @ 0xE0002FE0)ROMTbl 0 [2]: FFF03000, CID: B105E00D, PID: 000BB003 FPB -- CPU_ReadMem(16 bytes @ 0xE0000FF0) -- CPU_ReadMem(16 bytes @ 0xE0000FE0)ROMTbl 0 [3]: FFF01000, CID: B105E00D, PID: 001BB001 ITM -- CPU_ReadMem(16 bytes @ 0xE00FF010) -- CPU_ReadMem(16 bytes @ 0xE0040FF0) -- CPU_ReadMem(16 bytes @ 0xE0040FE0)ROMTbl 0 [4]: FFF41000, CID: B105900D, PID: 001BB923 TPIU-Lite -- CPU_ReadMem(16 bytes @ 0xE0041FF0)
 -- CPU_ReadMem(16 bytes @ 0xE0041FE0)ROMTbl 0 [5]: FFF42000, CID: B105900D, PID: 101BB924 ETM-M3 >0x0D TIF> >0x21 TIF>  returns 0x1BA01477 (0174ms, 0392ms total)
T2FC8 000:487 JLINK_GetDLLVersion()  returns 61009 (0000ms, 0392ms total)
T2FC8 000:487 JLINK_CORE_GetFound()  returns 0x30000FF (0000ms, 0392ms total)
T2FC8 000:487 JLINK_GetDebugInfo(0x100) -- Value=0xE00FF000  returns 0x00 (0000ms, 0392ms total)
T2FC8 000:491 JLINK_GetDebugInfo(0x100) -- Value=0xE00FF000  returns 0x00 (0000ms, 0392ms total)
T2FC8 000:491 JLINK_GetDebugInfo(0x101) -- Value=0xE0041000  returns 0x00 (0000ms, 0392ms total)
T2FC8 000:491 JLINK_GetDebugInfo(0x102) -- Value=0x00000000  returns 0x00 (0000ms, 0392ms total)
T2FC8 000:491 JLINK_GetDebugInfo(0x103) -- Value=0xE0040000  returns 0x00 (0000ms, 0392ms total)
T2FC8 000:491 JLINK_GetDebugInfo(0x104) -- Value=0xE0000000  returns 0x00 (0000ms, 0392ms total)
T2FC8 000:491 JLINK_GetDebugInfo(0x105) -- Value=0xE0001000  returns 0x00 (0000ms, 0392ms total)
T2FC8 000:491 JLINK_GetDebugInfo(0x106) -- Value=0xE0002000  returns 0x00 (0000ms, 0392ms total)
T2FC8 000:491 JLINK_GetDebugInfo(0x107) -- Value=0xE000E000  returns 0x00 (0000ms, 0392ms total)
T2FC8 000:491 JLINK_GetDebugInfo(0x10C) -- Value=0xE000EDF0  returns 0x00 (0000ms, 0392ms total)
T2FC8 000:491 JLINK_ReadMemU32(0xE000ED00, 0x0001 Items, ...) -- CPU is running -- CPU_ReadMem(4 bytes @ 0xE000ED00) - Data: 31 C2 1F 41  returns 0x01 (0001ms, 0393ms total)
T2FC8 000:492 JLINK_SetResetType(JLINKARM_RESET_TYPE_NORMAL)  returns JLINKARM_RESET_TYPE_NORMAL (0001ms, 0394ms total)
T2FC8 000:493 JLINK_Reset() -- CPU is running -- CPU_WriteMem(4 bytes @ 0xE000EDF0) -- CPU is running -- CPU_WriteMem(4 bytes @ 0xE000EDFC) >0x35 TIF> -- CPU is running -- CPU_WriteMem(4 bytes @ 0xE000ED0C) -- CPU is running -- CPU_ReadMem(4 bytes @ 0xE000EDF0) -- CPU is running -- CPU_ReadMem(4 bytes @ 0xE000EDF0) -- CPU is running -- CPU_WriteMem(4 bytes @ 0xE000EDF0) -- CPU is running -- CPU_WriteMem(4 bytes @ 0xE000EDFC) -- CPU is running -- CPU_ReadMem(4 bytes @ 0xE000EDF0)
 -- CPU_WriteMem(4 bytes @ 0xE0002000) -- CPU_ReadMem(4 bytes @ 0xE000EDFC) -- CPU_ReadMem(4 bytes @ 0xE0001000) (0023ms, 0417ms total)
T2FC8 000:516 JLINK_Halt()  returns 0x00 (0000ms, 0417ms total)
T2FC8 000:516 JLINK_IsHalted()  returns TRUE (0000ms, 0417ms total)
T2FC8 000:516 JLINK_ReadMemU32(0xE000EDF0, 0x0001 Items, ...) -- CPU_ReadMem(4 bytes @ 0xE000EDF0) - Data: 03 00 03 00  returns 0x01 (0001ms, 0418ms total)
T2FC8 000:517 JLINK_WriteU32(0xE000EDF0, 0xA05F0003) -- CPU_WriteMem(4 bytes @ 0xE000EDF0)  returns 0x00 (0001ms, 0419ms total)
T2FC8 000:518 JLINK_WriteU32(0xE000EDFC, 0x01000000) -- CPU_WriteMem(4 bytes @ 0xE000EDFC)  returns 0x00 (0001ms, 0420ms total)
T2FC8 000:530 JLINK_GetHWStatus(...)  returns 0x00 (0001ms, 0421ms total)
T2FC8 000:539 JLINK_GetNumBPUnits(Type = 0xFFFFFF00)  returns 0x06 (0000ms, 0421ms total)
T2FC8 000:539 JLINK_GetNumBPUnits(Type = 0xF0)  returns 0x2000 (0000ms, 0421ms total)
T2FC8 000:539 JLINK_GetNumWPUnits()  returns 0x04 (0000ms, 0421ms total)
T2FC8 000:547 JLINK_GetSpeed()  returns 0xFA0 (0000ms, 0421ms total)
T2FC8 000:553 JLINK_ReadMemU32(0xE000E004, 0x0001 Items, ...) -- CPU_ReadMem(4 bytes @ 0xE000E004) - Data: 01 00 00 00  returns 0x01 (0001ms, 0422ms total)
T2FC8 000:554 JLINK_ReadMemU32(0xE000E004, 0x0001 Items, ...) -- CPU_ReadMem(4 bytes @ 0xE000E004) - Data: 01 00 00 00  returns 0x01 (0001ms, 0423ms total)
T2FC8 000:555 JLINK_WriteMem(0xE0001000, 0x001C Bytes, ...) - Data: 01 00 00 00 00 00 00 00 00 00 00 00 00 00 00 00 ... -- CPU_WriteMem(28 bytes @ 0xE0001000)  returns 0x1C (0002ms, 0425ms total)
T2FC8 000:557 JLINK_ReadMem (0xE0001000, 0x001C Bytes, ...) -- CPU_ReadMem(28 bytes @ 0xE0001000) - Data: 01 00 00 40 00 00 00 00 00 00 00 00 00 00 00 00 ...  returns 0x00 (0001ms, 0426ms total)
T2FC8 000:558 JLINK_Halt()  returns 0x00 (0000ms, 0426ms total)
T2FC8 000:558 JLINK_IsHalted()  returns TRUE (0000ms, 0426ms total)
T2FC8 000:564 JLINK_WriteMem(0x20000000, 0x0164 Bytes, ...) - Data: 00 BE 0A E0 0D 78 2D 06 68 40 08 24 40 00 00 D3 ... -- CPU_WriteMem(356 bytes @ 0x20000000)  returns 0x164 (0005ms, 0431ms total)
T2FC8 000:569 JLINK_WriteReg(R0, 0x08000000)  returns 0x00 (0000ms, 0431ms total)
T2FC8 000:569 JLINK_WriteReg(R1, 0x007A1200)  returns 0x00 (0000ms, 0431ms total)
T2FC8 000:569 JLINK_WriteReg(R2, 0x00000001)  returns 0x00 (0000ms, 0431ms total)
T2FC8 000:569 JLINK_WriteReg(R3, 0x00000000)  returns 0x00 (0000ms, 0431ms total)
T2FC8 000:569 JLINK_WriteReg(R4, 0x00000000)  returns 0x00 (0000ms, 0431ms total)
T2FC8 000:569 JLINK_WriteReg(R5, 0x00000000)  returns 0x00 (0000ms, 0431ms total)
T2FC8 000:569 JLINK_WriteReg(R6, 0x00000000)  returns 0x00 (0000ms, 0431ms total)
T2FC8 000:569 JLINK_WriteReg(R7, 0x00000000)  returns 0x00 (0000ms, 0431ms total)
T2FC8 000:569 JLINK_WriteReg(R8, 0x00000000)  returns 0x00 (0001ms, 0432ms total)
T2FC8 000:570 JLINK_WriteReg(R9, 0x20000160)  returns 0x00 (0000ms, 0432ms total)
T2FC8 000:570 JLINK_WriteReg(R10, 0x00000000)  returns 0x00 (0000ms, 0432ms total)
T2FC8 000:570 JLINK_WriteReg(R11, 0x00000000)  returns 0x00 (0000ms, 0432ms total)
T2FC8 000:570 JLINK_WriteReg(R12, 0x00000000)  returns 0x00 (0000ms, 0432ms total)
T2FC8 000:570 JLINK_WriteReg(R13 (SP), 0x20000800)  returns 0x00 (0000ms, 0432ms total)
T2FC8 000:570 JLINK_WriteReg(R14, 0x20000001)  returns 0x00 (0000ms, 0432ms total)
T2FC8 000:570 JLINK_WriteReg(R15 (PC), 0x20000038)  returns 0x00 (0000ms, 0432ms total)
T2FC8 000:570 JLINK_WriteReg(XPSR, 0x01000000)  returns 0x00 (0000ms, 0432ms total)
T2FC8 000:570 JLINK_WriteReg(MSP, 0x20000800)  returns 0x00 (0000ms, 0432ms total)
T2FC8 000:570 JLINK_WriteReg(PSP, 0x20000800)  returns 0x00 (0000ms, 0432ms total)
T2FC8 000:570 JLINK_WriteReg(CFBP, 0x00000000)  returns 0x00 (0000ms, 0432ms total)
T2FC8 000:570 JLINK_SetBPEx(Addr = 0x20000000, Type = 0xFFFFFFF2) -- CPU_ReadMem(2 bytes @ 0x20000000)  returns 0x00000001 (0001ms, 0433ms total)
T2FC8 000:571 JLINK_Go() -- CPU_WriteMem(2 bytes @ 0x20000000) -- CPU_ReadMem(4 bytes @ 0xE0001000) -- CPU_WriteMem(4 bytes @ 0xE0002008) -- CPU_WriteMem(4 bytes @ 0xE000200C) -- CPU_WriteMem(4 bytes @ 0xE0002010) -- CPU_WriteMem(4 bytes @ 0xE0002014) -- CPU_WriteMem(4 bytes @ 0xE0002018) -- CPU_WriteMem(4 bytes @ 0xE000201C) -- CPU_WriteMem(4 bytes @ 0xE0001004) (0014ms, 0447ms total)
T2FC8 000:585 JLINK_IsHalted() -- CPU_ReadMem(2 bytes @ 0x20000000)  returns TRUE (0004ms, 0451ms total)
T2FC8 000:589 JLINK_ReadReg(R15 (PC))  returns 0x20000000 (0000ms, 0447ms total)
T2FC8 000:589 JLINK_ClrBPEx(BPHandle = 0x00000001)  returns 0x00 (0000ms, 0447ms total)
T2FC8 000:589 JLINK_ReadReg(R0)  returns 0x00000000 (0000ms, 0447ms total)
T2FC8 000:590 JLINK_WriteReg(R0, 0x08000000)  returns 0x00 (0000ms, 0447ms total)
T2FC8 000:590 JLINK_WriteReg(R1, 0x007A1200)  returns 0x00 (0000ms, 0447ms total)
T2FC8 000:590 JLINK_WriteReg(R2, 0x00000001)  returns 0x00 (0000ms, 0447ms total)
T2FC8 000:590 JLINK_WriteReg(R3, 0x00000000)  returns 0x00 (0000ms, 0447ms total)
T2FC8 000:590 JLINK_WriteReg(R4, 0x00000000)  returns 0x00 (0000ms, 0447ms total)
T2FC8 000:590 JLINK_WriteReg(R5, 0x00000000)  returns 0x00 (0000ms, 0447ms total)
T2FC8 000:590 JLINK_WriteReg(R6, 0x00000000)  returns 0x00 (0000ms, 0447ms total)
T2FC8 000:590 JLINK_WriteReg(R7, 0x00000000)  returns 0x00 (0000ms, 0447ms total)
T2FC8 000:590 JLINK_WriteReg(R8, 0x00000000)  returns 0x00 (0000ms, 0447ms total)
T2FC8 000:590 JLINK_WriteReg(R9, 0x20000160)  returns 0x00 (0000ms, 0447ms total)
T2FC8 000:590 JLINK_WriteReg(R10, 0x00000000)  returns 0x00 (0000ms, 0447ms total)
T2FC8 000:591 JLINK_WriteReg(R11, 0x00000000)  returns 0x00 (0000ms, 0448ms total)
T2FC8 000:591 JLINK_WriteReg(R12, 0x00000000)  returns 0x00 (0000ms, 0448ms total)
T2FC8 000:591 JLINK_WriteReg(R13 (SP), 0x20000800)  returns 0x00 (0000ms, 0448ms total)
T2FC8 000:591 JLINK_WriteReg(R14, 0x20000001)  returns 0x00 (0000ms, 0448ms total)
T2FC8 000:591 JLINK_WriteReg(R15 (PC), 0x2000007C)  returns 0x00 (0000ms, 0448ms total)
T2FC8 000:591 JLINK_WriteReg(XPSR, 0x01000000)  returns 0x00 (0000ms, 0448ms total)
T2FC8 000:591 JLINK_WriteReg(MSP, 0x20000800)  returns 0x00 (0000ms, 0448ms total)
T2FC8 000:591 JLINK_WriteReg(PSP, 0x20000800)  returns 0x00 (0000ms, 0448ms total)
T2FC8 000:591 JLINK_WriteReg(CFBP, 0x00000000)  returns 0x00 (0000ms, 0448ms total)
T2FC8 000:591 JLINK_SetBPEx(Addr = 0x20000000, Type = 0xFFFFFFF2)  returns 0x00000002 (0000ms, 0448ms total)
T2FC8 000:591 JLINK_Go() -- CPU_ReadMem(4 bytes @ 0xE0001000) (0003ms, 0451ms total)
T2FC8 000:594 JLINK_IsHalted()  returns FALSE (0001ms, 0452ms total)
T2FC8 000:674 JLINK_IsHalted() -- CPU_ReadMem(2 bytes @ 0x20000000)  returns TRUE (0004ms, 0455ms total)
T2FC8 000:678 JLINK_ReadReg(R15 (PC))  returns 0x20000000 (0000ms, 0451ms total)
T2FC8 000:678 JLINK_ClrBPEx(BPHandle = 0x00000002)  returns 0x00 (0000ms, 0451ms total)
T2FC8 000:678 JLINK_ReadReg(R0)  returns 0x00000000 (0000ms, 0451ms total)
T2FC8 000:729 JLINK_WriteReg(R0, 0x00000001)  returns 0x00 (0001ms, 0452ms total)
T2FC8 000:730 JLINK_WriteReg(R1, 0x007A1200)  returns 0x00 (0000ms, 0452ms total)
T2FC8 000:730 JLINK_WriteReg(R2, 0x00000001)  returns 0x00 (0000ms, 0452ms total)
T2FC8 000:730 JLINK_WriteReg(R3, 0x00000000)  returns 0x00 (0000ms, 0452ms total)
T2FC8 000:730 JLINK_WriteReg(R4, 0x00000000)  returns 0x00 (0000ms, 0452ms total)
T2FC8 000:730 JLINK_WriteReg(R5, 0x00000000)  returns 0x00 (0000ms, 0452ms total)
T2FC8 000:730 JLINK_WriteReg(R6, 0x00000000)  returns 0x00 (0000ms, 0452ms total)
T2FC8 000:730 JLINK_WriteReg(R7, 0x00000000)  returns 0x00 (0000ms, 0452ms total)
T2FC8 000:730 JLINK_WriteReg(R8, 0x00000000)  returns 0x00 (0000ms, 0452ms total)
T2FC8 000:730 JLINK_WriteReg(R9, 0x20000160)  returns 0x00 (0000ms, 0452ms total)
T2FC8 000:730 JLINK_WriteReg(R10, 0x00000000)  returns 0x00 (0000ms, 0452ms total)
T2FC8 000:730 JLINK_WriteReg(R11, 0x00000000)  returns 0x00 (0000ms, 0452ms total)
T2FC8 000:730 JLINK_WriteReg(R12, 0x00000000)  returns 0x00 (0000ms, 0452ms total)
T2FC8 000:730 JLINK_WriteReg(R13 (SP), 0x20000800)  returns 0x00 (0000ms, 0452ms total)
T2FC8 000:730 JLINK_WriteReg(R14, 0x20000001)  returns 0x00 (0000ms, 0452ms total)
T2FC8 000:730 JLINK_WriteReg(R15 (PC), 0x2000006A)  returns 0x00 (0000ms, 0452ms total)
T2FC8 000:730 JLINK_WriteReg(XPSR, 0x01000000)  returns 0x00 (0000ms, 0452ms total)
T2FC8 000:730 JLINK_WriteReg(MSP, 0x20000800)  returns 0x00 (0000ms, 0452ms total)
T2FC8 000:730 JLINK_WriteReg(PSP, 0x20000800)  returns 0x00 (0000ms, 0452ms total)
T2FC8 000:730 JLINK_WriteReg(CFBP, 0x00000000)  returns 0x00 (0000ms, 0452ms total)
T2FC8 000:730 JLINK_SetBPEx(Addr = 0x20000000, Type = 0xFFFFFFF2)  returns 0x00000003 (0000ms, 0452ms total)
T2FC8 000:730 JLINK_Go() -- CPU_ReadMem(4 bytes @ 0xE0001000) (0004ms, 0456ms total)
T2FC8 000:734 JLINK_IsHalted() -- CPU_ReadMem(2 bytes @ 0x20000000)  returns TRUE (0004ms, 0460ms total)
T2FC8 000:738 JLINK_ReadReg(R15 (PC))  returns 0x20000000 (0000ms, 0456ms total)
T2FC8 000:738 JLINK_ClrBPEx(BPHandle = 0x00000003)  returns 0x00 (0000ms, 0456ms total)
T2FC8 000:738 JLINK_ReadReg(R0)  returns 0x00000000 (0000ms, 0456ms total)
T2FC8 000:747 JLINK_WriteMem(0x20000000, 0x0164 Bytes, ...) - Data: 00 BE 0A E0 0D 78 2D 06 68 40 08 24 40 00 00 D3 ... -- CPU_WriteMem(356 bytes @ 0x20000000)  returns 0x164 (0003ms, 0459ms total)
T2FC8 000:750 JLINK_WriteReg(R0, 0x08000000)  returns 0x00 (0000ms, 0459ms total)
T2FC8 000:750 JLINK_WriteReg(R1, 0x007A1200)  returns 0x00 (0000ms, 0459ms total)
T2FC8 000:750 JLINK_WriteReg(R2, 0x00000002)  returns 0x00 (0000ms, 0459ms total)
T2FC8 000:750 JLINK_WriteReg(R3, 0x00000000)  returns 0x00 (0000ms, 0459ms total)
T2FC8 000:750 JLINK_WriteReg(R4, 0x00000000)  returns 0x00 (0000ms, 0459ms total)
T2FC8 000:750 JLINK_WriteReg(R5, 0x00000000)  returns 0x00 (0000ms, 0459ms total)
T2FC8 000:750 JLINK_WriteReg(R6, 0x00000000)  returns 0x00 (0000ms, 0459ms total)
T2FC8 000:750 JLINK_WriteReg(R7, 0x00000000)  returns 0x00 (0000ms, 0459ms total)
T2FC8 000:750 JLINK_WriteReg(R8, 0x00000000)  returns 0x00 (0000ms, 0459ms total)
T2FC8 000:751 JLINK_WriteReg(R9, 0x20000160)  returns 0x00 (0000ms, 0459ms total)
T2FC8 000:751 JLINK_WriteReg(R10, 0x00000000)  returns 0x00 (0000ms, 0459ms total)
T2FC8 000:751 JLINK_WriteReg(R11, 0x00000000)  returns 0x00 (0000ms, 0459ms total)
T2FC8 000:751 JLINK_WriteReg(R12, 0x00000000)  returns 0x00 (0000ms, 0459ms total)
T2FC8 000:751 JLINK_WriteReg(R13 (SP), 0x20000800)  returns 0x00 (0000ms, 0459ms total)
T2FC8 000:751 JLINK_WriteReg(R14, 0x20000001)  returns 0x00 (0000ms, 0459ms total)
T2FC8 000:751 JLINK_WriteReg(R15 (PC), 0x20000038)  returns 0x00 (0000ms, 0459ms total)
T2FC8 000:751 JLINK_WriteReg(XPSR, 0x01000000)  returns 0x00 (0000ms, 0459ms total)
T2FC8 000:751 JLINK_WriteReg(MSP, 0x20000800)  returns 0x00 (0000ms, 0459ms total)
T2FC8 000:751 JLINK_WriteReg(PSP, 0x20000800)  returns 0x00 (0000ms, 0459ms total)
T2FC8 000:751 JLINK_WriteReg(CFBP, 0x00000000)  returns 0x00 (0000ms, 0459ms total)
T2FC8 000:751 JLINK_SetBPEx(Addr = 0x20000000, Type = 0xFFFFFFF2) -- CPU_ReadMem(2 bytes @ 0x20000000)  returns 0x00000004 (0001ms, 0460ms total)
T2FC8 000:752 JLINK_Go() -- CPU_WriteMem(2 bytes @ 0x20000000) -- CPU_ReadMem(4 bytes @ 0xE0001000) (0004ms, 0464ms total)
T2FC8 000:756 JLINK_IsHalted() -- CPU_ReadMem(2 bytes @ 0x20000000)  returns TRUE (0004ms, 0468ms total)
T2FC8 000:760 JLINK_ReadReg(R15 (PC))  returns 0x20000000 (0000ms, 0464ms total)
T2FC8 000:760 JLINK_ClrBPEx(BPHandle = 0x00000004)  returns 0x00 (0000ms, 0464ms total)
T2FC8 000:760 JLINK_ReadReg(R0)  returns 0x00000000 (0000ms, 0464ms total)
T2FC8 000:761 JLINK_WriteMem(0x20000164, 0x0400 Bytes, ...) - Data: 00 04 00 20 6B 3F 00 08 F1 19 00 08 F3 19 00 08 ... -- CPU_WriteMem(1024 bytes @ 0x20000164)  returns 0x400 (0006ms, 0470ms total)
T2FC8 000:767 JLINK_WriteReg(R0, 0x08000000)  returns 0x00 (0000ms, 0470ms total)
T2FC8 000:768 JLINK_WriteReg(R1, 0x00000400)  returns 0x00 (0000ms, 0471ms total)
T2FC8 000:768 JLINK_WriteReg(R2, 0x20000164)  returns 0x00 (0000ms, 0471ms total)
T2FC8 000:768 JLINK_WriteReg(R3, 0x00000000)  returns 0x00 (0000ms, 0471ms total)
T2FC8 000:768 JLINK_WriteReg(R4, 0x00000000)  returns 0x00 (0000ms, 0471ms total)
T2FC8 000:768 JLINK_WriteReg(R5, 0x00000000)  returns 0x00 (0000ms, 0471ms total)
T2FC8 000:768 JLINK_WriteReg(R6, 0x00000000)  returns 0x00 (0000ms, 0471ms total)
T2FC8 000:768 JLINK_WriteReg(R7, 0x00000000)  returns 0x00 (0000ms, 0471ms total)
T2FC8 000:768 JLINK_WriteReg(R8, 0x00000000)  returns 0x00 (0000ms, 0471ms total)
T2FC8 000:768 JLINK_WriteReg(R9, 0x20000160)  returns 0x00 (0000ms, 0471ms total)
T2FC8 000:768 JLINK_WriteReg(R10, 0x00000000)  returns 0x00 (0000ms, 0471ms total)
T2FC8 000:768 JLINK_WriteReg(R11, 0x00000000)  returns 0x00 (0000ms, 0471ms total)
T2FC8 000:768 JLINK_WriteReg(R12, 0x00000000)  returns 0x00 (0000ms, 0471ms total)
T2FC8 000:768 JLINK_WriteReg(R13 (SP), 0x20000800)  returns 0x00 (0000ms, 0471ms total)
T2FC8 000:768 JLINK_WriteReg(R14, 0x20000001)  returns 0x00 (0000ms, 0471ms total)
T2FC8 000:768 JLINK_WriteReg(R15 (PC), 0x200000F4)  returns 0x00 (0000ms, 0471ms total)
T2FC8 000:768 JLINK_WriteReg(XPSR, 0x01000000)  returns 0x00 (0000ms, 0471ms total)
T2FC8 000:768 JLINK_WriteReg(MSP, 0x20000800)  returns 0x00 (0000ms, 0471ms total)
T2FC8 000:768 JLINK_WriteReg(PSP, 0x20000800)  returns 0x00 (0000ms, 0471ms total)
T2FC8 000:768 JLINK_WriteReg(CFBP, 0x00000000)  returns 0x00 (0000ms, 0471ms total)
T2FC8 000:768 JLINK_SetBPEx(Addr = 0x20000000, Type = 0xFFFFFFF2)  returns 0x00000005 (0000ms, 0471ms total)
T2FC8 000:768 JLINK_Go() -- CPU_ReadMem(4 bytes @ 0xE0001000) (0004ms, 0475ms total)
T2FC8 000:772 JLINK_IsHalted()  returns FALSE (0001ms, 0476ms total)
T2FC8 000:864 JLINK_IsHalted() -- CPU_ReadMem(2 bytes @ 0x20000000)  returns TRUE (0004ms, 0479ms total)
T2FC8 000:868 JLINK_ReadReg(R15 (PC))  returns 0x20000000 (0000ms, 0475ms total)
T2FC8 000:868 JLINK_ClrBPEx(BPHandle = 0x00000005)  returns 0x00 (0000ms, 0475ms total)
T2FC8 000:868 JLINK_ReadReg(R0)  returns 0x00000000 (0000ms, 0475ms total)
T2FC8 000:868 JLINK_WriteMem(0x20000164, 0x0400 Bytes, ...) - Data: 0A 20 07 F0 3F FB 74 B1 52 48 00 68 00 F4 00 54 ... -- CPU_WriteMem(1024 bytes @ 0x20000164)  returns 0x400 (0007ms, 0482ms total)
T2FC8 000:875 JLINK_WriteReg(R0, 0x08000400)  returns 0x00 (0000ms, 0482ms total)
T2FC8 000:875 JLINK_WriteReg(R1, 0x00000400)  returns 0x00 (0000ms, 0482ms total)
T2FC8 000:875 JLINK_WriteReg(R2, 0x20000164)  returns 0x00 (0000ms, 0482ms total)
T2FC8 000:875 JLINK_WriteReg(R3, 0x00000000)  returns 0x00 (0000ms, 0482ms total)
T2FC8 000:875 JLINK_WriteReg(R4, 0x00000000)  returns 0x00 (0000ms, 0482ms total)
T2FC8 000:875 JLINK_WriteReg(R5, 0x00000000)  returns 0x00 (0000ms, 0482ms total)
T2FC8 000:875 JLINK_WriteReg(R6, 0x00000000)  returns 0x00 (0000ms, 0482ms total)
T2FC8 000:875 JLINK_WriteReg(R7, 0x00000000)  returns 0x00 (0000ms, 0482ms total)
T2FC8 000:875 JLINK_WriteReg(R8, 0x00000000)  returns 0x00 (0000ms, 0482ms total)
T2FC8 000:875 JLINK_WriteReg(R9, 0x20000160)  returns 0x00 (0000ms, 0482ms total)
T2FC8 000:875 JLINK_WriteReg(R10, 0x00000000)  returns 0x00 (0000ms, 0482ms total)
T2FC8 000:875 JLINK_WriteReg(R11, 0x00000000)  returns 0x00 (0000ms, 0482ms total)
T2FC8 000:875 JLINK_WriteReg(R12, 0x00000000)  returns 0x00 (0000ms, 0482ms total)
T2FC8 000:875 JLINK_WriteReg(R13 (SP), 0x20000800)  returns 0x00 (0000ms, 0482ms total)
T2FC8 000:875 JLINK_WriteReg(R14, 0x20000001)  returns 0x00 (0000ms, 0482ms total)
T2FC8 000:875 JLINK_WriteReg(R15 (PC), 0x200000F4)  returns 0x00 (0000ms, 0482ms total)
T2FC8 000:875 JLINK_WriteReg(XPSR, 0x01000000)  returns 0x00 (0000ms, 0482ms total)
T2FC8 000:875 JLINK_WriteReg(MSP, 0x20000800)  returns 0x00 (0000ms, 0482ms total)
T2FC8 000:875 JLINK_WriteReg(PSP, 0x20000800)  returns 0x00 (0000ms, 0482ms total)
T2FC8 000:875 JLINK_WriteReg(CFBP, 0x00000000)  returns 0x00 (0000ms, 0482ms total)
T2FC8 000:875 JLINK_SetBPEx(Addr = 0x20000000, Type = 0xFFFFFFF2)  returns 0x00000006 (0000ms, 0482ms total)
T2FC8 000:875 JLINK_Go() -- CPU_ReadMem(4 bytes @ 0xE0001000) (0004ms, 0486ms total)
T2FC8 000:879 JLINK_IsHalted()  returns FALSE (0001ms, 0487ms total)
T2FC8 000:953 JLINK_IsHalted() -- CPU_ReadMem(2 bytes @ 0x20000000)  returns TRUE (0004ms, 0490ms total)
T2FC8 000:957 JLINK_ReadReg(R15 (PC))  returns 0x20000000 (0000ms, 0486ms total)
T2FC8 000:957 JLINK_ClrBPEx(BPHandle = 0x00000006)  returns 0x00 (0000ms, 0486ms total)
T2FC8 000:957 JLINK_ReadReg(R0)  returns 0x00000000 (0000ms, 0486ms total)
T2FC8 000:958 JLINK_WriteMem(0x20000164, 0x0400 Bytes, ...) - Data: 10 E0 79 48 80 88 40 1E 83 B2 77 48 40 88 40 1E ... -- CPU_WriteMem(1024 bytes @ 0x20000164)  returns 0x400 (0006ms, 0492ms total)
T2FC8 000:964 JLINK_WriteReg(R0, 0x08000800)  returns 0x00 (0000ms, 0492ms total)
T2FC8 000:964 JLINK_WriteReg(R1, 0x00000400)  returns 0x00 (0000ms, 0492ms total)
T2FC8 000:964 JLINK_WriteReg(R2, 0x20000164)  returns 0x00 (0000ms, 0492ms total)
T2FC8 000:964 JLINK_WriteReg(R3, 0x00000000)  returns 0x00 (0000ms, 0492ms total)
T2FC8 000:964 JLINK_WriteReg(R4, 0x00000000)  returns 0x00 (0000ms, 0492ms total)
T2FC8 000:964 JLINK_WriteReg(R5, 0x00000000)  returns 0x00 (0000ms, 0492ms total)
T2FC8 000:964 JLINK_WriteReg(R6, 0x00000000)  returns 0x00 (0000ms, 0492ms total)
T2FC8 000:964 JLINK_WriteReg(R7, 0x00000000)  returns 0x00 (0000ms, 0492ms total)
T2FC8 000:964 JLINK_WriteReg(R8, 0x00000000)  returns 0x00 (0000ms, 0492ms total)
T2FC8 000:964 JLINK_WriteReg(R9, 0x20000160)  returns 0x00 (0000ms, 0492ms total)
T2FC8 000:964 JLINK_WriteReg(R10, 0x00000000)  returns 0x00 (0000ms, 0492ms total)
T2FC8 000:964 JLINK_WriteReg(R11, 0x00000000)  returns 0x00 (0000ms, 0492ms total)
T2FC8 000:964 JLINK_WriteReg(R12, 0x00000000)  returns 0x00 (0000ms, 0492ms total)
T2FC8 000:964 JLINK_WriteReg(R13 (SP), 0x20000800)  returns 0x00 (0000ms, 0492ms total)
T2FC8 000:964 JLINK_WriteReg(R14, 0x20000001)  returns 0x00 (0000ms, 0492ms total)
T2FC8 000:964 JLINK_WriteReg(R15 (PC), 0x200000F4)  returns 0x00 (0001ms, 0493ms total)
T2FC8 000:965 JLINK_WriteReg(XPSR, 0x01000000)  returns 0x00 (0000ms, 0493ms total)
T2FC8 000:965 JLINK_WriteReg(MSP, 0x20000800)  returns 0x00 (0000ms, 0493ms total)
T2FC8 000:965 JLINK_WriteReg(PSP, 0x20000800)  returns 0x00 (0000ms, 0493ms total)
T2FC8 000:965 JLINK_WriteReg(CFBP, 0x00000000)  returns 0x00 (0000ms, 0493ms total)
T2FC8 000:965 JLINK_SetBPEx(Addr = 0x20000000, Type = 0xFFFFFFF2)  returns 0x00000007 (0000ms, 0493ms total)
T2FC8 000:965 JLINK_Go() -- CPU_ReadMem(4 bytes @ 0xE0001000) (0003ms, 0496ms total)
T2FC8 000:968 JLINK_IsHalted()  returns FALSE (0001ms, 0497ms total)
T2FC8 000:972 JLINK_IsHalted()  returns FALSE (0001ms, 0497ms total)
T2FC8 000:974 JLINK_IsHalted()  returns FALSE (0001ms, 0497ms total)
T2FC8 000:976 JLINK_IsHalted()  returns FALSE (0001ms, 0497ms total)
T2FC8 000:978 JLINK_IsHalted()  returns FALSE (0001ms, 0497ms total)
T2FC8 000:980 JLINK_IsHalted()  returns FALSE (0001ms, 0497ms total)
T2FC8 000:982 JLINK_IsHalted()  returns FALSE (0001ms, 0497ms total)
T2FC8 000:984 JLINK_IsHalted()  returns FALSE (0001ms, 0497ms total)
T2FC8 000:986 JLINK_IsHalted()  returns FALSE (0001ms, 0497ms total)
T2FC8 000:988 JLINK_IsHalted()  returns FALSE (0001ms, 0497ms total)
T2FC8 000:990 JLINK_IsHalted()  returns FALSE (0001ms, 0497ms total)
T2FC8 000:992 JLINK_IsHalted()  returns FALSE (0001ms, 0497ms total)
T2FC8 000:994 JLINK_IsHalted()  returns FALSE (0001ms, 0497ms total)
T2FC8 000:996 JLINK_IsHalted()  returns FALSE (0001ms, 0497ms total)
T2FC8 000:998 JLINK_IsHalted()  returns FALSE (0001ms, 0497ms total)
T2FC8 001:000 JLINK_IsHalted() -- CPU_ReadMem(2 bytes @ 0x20000000)  returns TRUE (0004ms, 0500ms total)
T2FC8 001:004 JLINK_ReadReg(R15 (PC))  returns 0x20000000 (0000ms, 0500ms total)
T2FC8 001:004 JLINK_ClrBPEx(BPHandle = 0x00000007)  returns 0x00 (0000ms, 0500ms total)
T2FC8 001:004 JLINK_ReadReg(R0)  returns 0x00000000 (0000ms, 0500ms total)
T2FC8 001:005 JLINK_WriteMem(0x20000164, 0x0400 Bytes, ...) - Data: 64 20 07 F0 02 FD B8 A1 00 20 09 F0 DB FC B4 48 ... -- CPU_WriteMem(1024 bytes @ 0x20000164)  returns 0x400 (0006ms, 0506ms total)
T2FC8 001:011 JLINK_WriteReg(R0, 0x08000C00)  returns 0x00 (0000ms, 0506ms total)
T2FC8 001:011 JLINK_WriteReg(R1, 0x00000400)  returns 0x00 (0001ms, 0507ms total)
T2FC8 001:012 JLINK_WriteReg(R2, 0x20000164)  returns 0x00 (0000ms, 0507ms total)
T2FC8 001:012 JLINK_WriteReg(R3, 0x00000000)  returns 0x00 (0000ms, 0507ms total)
T2FC8 001:012 JLINK_WriteReg(R4, 0x00000000)  returns 0x00 (0000ms, 0507ms total)
T2FC8 001:012 JLINK_WriteReg(R5, 0x00000000)  returns 0x00 (0000ms, 0507ms total)
T2FC8 001:012 JLINK_WriteReg(R6, 0x00000000)  returns 0x00 (0000ms, 0507ms total)
T2FC8 001:012 JLINK_WriteReg(R7, 0x00000000)  returns 0x00 (0000ms, 0507ms total)
T2FC8 001:012 JLINK_WriteReg(R8, 0x00000000)  returns 0x00 (0000ms, 0507ms total)
T2FC8 001:012 JLINK_WriteReg(R9, 0x20000160)  returns 0x00 (0000ms, 0507ms total)
T2FC8 001:012 JLINK_WriteReg(R10, 0x00000000)  returns 0x00 (0000ms, 0507ms total)
T2FC8 001:012 JLINK_WriteReg(R11, 0x00000000)  returns 0x00 (0000ms, 0507ms total)
T2FC8 001:012 JLINK_WriteReg(R12, 0x00000000)  returns 0x00 (0000ms, 0507ms total)
T2FC8 001:012 JLINK_WriteReg(R13 (SP), 0x20000800)  returns 0x00 (0000ms, 0507ms total)
T2FC8 001:012 JLINK_WriteReg(R14, 0x20000001)  returns 0x00 (0000ms, 0507ms total)
T2FC8 001:012 JLINK_WriteReg(R15 (PC), 0x200000F4)  returns 0x00 (0000ms, 0507ms total)
T2FC8 001:012 JLINK_WriteReg(XPSR, 0x01000000)  returns 0x00 (0000ms, 0507ms total)
T2FC8 001:012 JLINK_WriteReg(MSP, 0x20000800)  returns 0x00 (0000ms, 0507ms total)
T2FC8 001:012 JLINK_WriteReg(PSP, 0x20000800)  returns 0x00 (0000ms, 0507ms total)
T2FC8 001:012 JLINK_WriteReg(CFBP, 0x00000000)  returns 0x00 (0000ms, 0507ms total)
T2FC8 001:012 JLINK_SetBPEx(Addr = 0x20000000, Type = 0xFFFFFFF2)  returns 0x00000008 (0000ms, 0507ms total)
T2FC8 001:012 JLINK_Go() -- CPU_ReadMem(4 bytes @ 0xE0001000) (0004ms, 0511ms total)
T2FC8 001:016 JLINK_IsHalted()  returns FALSE (0001ms, 0512ms total)
T2FC8 001:018 JLINK_IsHalted()  returns FALSE (0001ms, 0512ms total)
T2FC8 001:024 JLINK_IsHalted()  returns FALSE (0001ms, 0512ms total)
T2FC8 001:026 JLINK_IsHalted()  returns FALSE (0001ms, 0512ms total)
T2FC8 001:028 JLINK_IsHalted()  returns FALSE (0001ms, 0512ms total)
T2FC8 001:030 JLINK_IsHalted()  returns FALSE (0001ms, 0512ms total)
T2FC8 001:032 JLINK_IsHalted()  returns FALSE (0000ms, 0511ms total)
T2FC8 001:033 JLINK_IsHalted()  returns FALSE (0000ms, 0511ms total)
T2FC8 001:034 JLINK_IsHalted()  returns FALSE (0001ms, 0512ms total)
T2FC8 001:036 JLINK_IsHalted()  returns FALSE (0001ms, 0512ms total)
T2FC8 001:038 JLINK_IsHalted()  returns FALSE (0000ms, 0511ms total)
T2FC8 001:039 JLINK_IsHalted()  returns FALSE (0001ms, 0512ms total)
T2FC8 001:041 JLINK_IsHalted()  returns FALSE (0000ms, 0511ms total)
T2FC8 001:042 JLINK_IsHalted()  returns FALSE (0000ms, 0511ms total)
T2FC8 001:043 JLINK_IsHalted()  returns FALSE (0000ms, 0511ms total)
T2FC8 001:044 JLINK_IsHalted()  returns FALSE (0001ms, 0512ms total)
T2FC8 001:046 JLINK_IsHalted() -- CPU_ReadMem(2 bytes @ 0x20000000)  returns TRUE (0004ms, 0515ms total)
T2FC8 001:050 JLINK_ReadReg(R15 (PC))  returns 0x20000000 (0000ms, 0511ms total)
T2FC8 001:050 JLINK_ClrBPEx(BPHandle = 0x00000008)  returns 0x00 (0000ms, 0511ms total)
T2FC8 001:050 JLINK_ReadReg(R0)  returns 0x00000000 (0000ms, 0511ms total)
T2FC8 001:051 JLINK_WriteMem(0x20000164, 0x0400 Bytes, ...) - Data: 89 1C 00 EB 01 20 1F FA 80 F8 B9 20 07 F0 74 FE ... -- CPU_WriteMem(1024 bytes @ 0x20000164)  returns 0x400 (0007ms, 0518ms total)
T2FC8 001:058 JLINK_WriteReg(R0, 0x08001000)  returns 0x00 (0000ms, 0518ms total)
T2FC8 001:058 JLINK_WriteReg(R1, 0x00000400)  returns 0x00 (0000ms, 0518ms total)
T2FC8 001:058 JLINK_WriteReg(R2, 0x20000164)  returns 0x00 (0000ms, 0518ms total)
T2FC8 001:058 JLINK_WriteReg(R3, 0x00000000)  returns 0x00 (0000ms, 0518ms total)
T2FC8 001:058 JLINK_WriteReg(R4, 0x00000000)  returns 0x00 (0000ms, 0518ms total)
T2FC8 001:058 JLINK_WriteReg(R5, 0x00000000)  returns 0x00 (0000ms, 0518ms total)
T2FC8 001:058 JLINK_WriteReg(R6, 0x00000000)  returns 0x00 (0000ms, 0518ms total)
T2FC8 001:058 JLINK_WriteReg(R7, 0x00000000)  returns 0x00 (0000ms, 0518ms total)
T2FC8 001:058 JLINK_WriteReg(R8, 0x00000000)  returns 0x00 (0000ms, 0518ms total)
T2FC8 001:058 JLINK_WriteReg(R9, 0x20000160)  returns 0x00 (0000ms, 0518ms total)
T2FC8 001:058 JLINK_WriteReg(R10, 0x00000000)  returns 0x00 (0000ms, 0518ms total)
T2FC8 001:058 JLINK_WriteReg(R11, 0x00000000)  returns 0x00 (0000ms, 0518ms total)
T2FC8 001:058 JLINK_WriteReg(R12, 0x00000000)  returns 0x00 (0000ms, 0518ms total)
T2FC8 001:058 JLINK_WriteReg(R13 (SP), 0x20000800)  returns 0x00 (0000ms, 0518ms total)
T2FC8 001:058 JLINK_WriteReg(R14, 0x20000001)  returns 0x00 (0000ms, 0518ms total)
T2FC8 001:059 JLINK_WriteReg(R15 (PC), 0x200000F4)  returns 0x00 (0000ms, 0519ms total)
T2FC8 001:059 JLINK_WriteReg(XPSR, 0x01000000)  returns 0x00 (0000ms, 0519ms total)
T2FC8 001:059 JLINK_WriteReg(MSP, 0x20000800)  returns 0x00 (0000ms, 0519ms total)
T2FC8 001:059 JLINK_WriteReg(PSP, 0x20000800)  returns 0x00 (0000ms, 0519ms total)
T2FC8 001:059 JLINK_WriteReg(CFBP, 0x00000000)  returns 0x00 (0000ms, 0519ms total)
T2FC8 001:059 JLINK_SetBPEx(Addr = 0x20000000, Type = 0xFFFFFFF2)  returns 0x00000009 (0000ms, 0519ms total)
T2FC8 001:059 JLINK_Go() -- CPU_ReadMem(4 bytes @ 0xE0001000) (0003ms, 0522ms total)
T2FC8 001:062 JLINK_IsHalted()  returns FALSE (0001ms, 0523ms total)
T2FC8 001:064 JLINK_IsHalted()  returns FALSE (0000ms, 0522ms total)
T2FC8 001:069 JLINK_IsHalted()  returns FALSE (0001ms, 0523ms total)
T2FC8 001:071 JLINK_IsHalted()  returns FALSE (0001ms, 0523ms total)
T2FC8 001:073 JLINK_IsHalted()  returns FALSE (0001ms, 0523ms total)
T2FC8 001:075 JLINK_IsHalted()  returns FALSE (0001ms, 0523ms total)
T2FC8 001:077 JLINK_IsHalted()  returns FALSE (0001ms, 0524ms total)
T2FC8 001:079 JLINK_IsHalted()  returns FALSE (0001ms, 0524ms total)
T2FC8 001:081 JLINK_IsHalted()  returns FALSE (0001ms, 0524ms total)
T2FC8 001:083 JLINK_IsHalted()  returns FALSE (0001ms, 0524ms total)
T2FC8 001:085 JLINK_IsHalted()  returns FALSE (0001ms, 0524ms total)
T2FC8 001:087 JLINK_IsHalted()  returns FALSE (0001ms, 0524ms total)
T2FC8 001:089 JLINK_IsHalted()  returns FALSE (0001ms, 0524ms total)
T2FC8 001:091 JLINK_IsHalted()  returns FALSE (0001ms, 0524ms total)
T2FC8 001:093 JLINK_IsHalted() -- CPU_ReadMem(2 bytes @ 0x20000000)  returns TRUE (0004ms, 0527ms total)
T2FC8 001:097 JLINK_ReadReg(R15 (PC))  returns 0x20000000 (0000ms, 0523ms total)
T2FC8 001:097 JLINK_ClrBPEx(BPHandle = 0x00000009)  returns 0x00 (0000ms, 0523ms total)
T2FC8 001:097 JLINK_ReadReg(R0)  returns 0x00000000 (0000ms, 0523ms total)
T2FC8 001:098 JLINK_WriteMem(0x20000164, 0x0400 Bytes, ...) - Data: B6 FF 10 BD 10 B5 00 21 D9 20 07 F0 F4 FD 9E 48 ... -- CPU_WriteMem(1024 bytes @ 0x20000164)  returns 0x400 (0007ms, 0530ms total)
T2FC8 001:105 JLINK_WriteReg(R0, 0x08001400)  returns 0x00 (0000ms, 0530ms total)
T2FC8 001:105 JLINK_WriteReg(R1, 0x00000400)  returns 0x00 (0000ms, 0530ms total)
T2FC8 001:105 JLINK_WriteReg(R2, 0x20000164)  returns 0x00 (0000ms, 0530ms total)
T2FC8 001:105 JLINK_WriteReg(R3, 0x00000000)  returns 0x00 (0000ms, 0530ms total)
T2FC8 001:105 JLINK_WriteReg(R4, 0x00000000)  returns 0x00 (0000ms, 0530ms total)
T2FC8 001:105 JLINK_WriteReg(R5, 0x00000000)  returns 0x00 (0000ms, 0530ms total)
T2FC8 001:105 JLINK_WriteReg(R6, 0x00000000)  returns 0x00 (0000ms, 0530ms total)
T2FC8 001:105 JLINK_WriteReg(R7, 0x00000000)  returns 0x00 (0000ms, 0530ms total)
T2FC8 001:105 JLINK_WriteReg(R8, 0x00000000)  returns 0x00 (0000ms, 0530ms total)
T2FC8 001:105 JLINK_WriteReg(R9, 0x20000160)  returns 0x00 (0000ms, 0530ms total)
T2FC8 001:105 JLINK_WriteReg(R10, 0x00000000)  returns 0x00 (0000ms, 0530ms total)
T2FC8 001:105 JLINK_WriteReg(R11, 0x00000000)  returns 0x00 (0000ms, 0530ms total)
T2FC8 001:105 JLINK_WriteReg(R12, 0x00000000)  returns 0x00 (0000ms, 0530ms total)
T2FC8 001:105 JLINK_WriteReg(R13 (SP), 0x20000800)  returns 0x00 (0000ms, 0530ms total)
T2FC8 001:105 JLINK_WriteReg(R14, 0x20000001)  returns 0x00 (0000ms, 0530ms total)
T2FC8 001:105 JLINK_WriteReg(R15 (PC), 0x200000F4)  returns 0x00 (0000ms, 0530ms total)
T2FC8 001:105 JLINK_WriteReg(XPSR, 0x01000000)  returns 0x00 (0000ms, 0530ms total)
T2FC8 001:105 JLINK_WriteReg(MSP, 0x20000800)  returns 0x00 (0001ms, 0531ms total)
T2FC8 001:106 JLINK_WriteReg(PSP, 0x20000800)  returns 0x00 (0000ms, 0531ms total)
T2FC8 001:106 JLINK_WriteReg(CFBP, 0x00000000)  returns 0x00 (0000ms, 0531ms total)
T2FC8 001:106 JLINK_SetBPEx(Addr = 0x20000000, Type = 0xFFFFFFF2)  returns 0x0000000A (0000ms, 0531ms total)
T2FC8 001:106 JLINK_Go() -- CPU_ReadMem(4 bytes @ 0xE0001000) (0003ms, 0534ms total)
T2FC8 001:109 JLINK_IsHalted()  returns FALSE (0001ms, 0535ms total)
T2FC8 001:111 JLINK_IsHalted()  returns FALSE (0001ms, 0535ms total)
T2FC8 001:113 JLINK_IsHalted()  returns FALSE (0001ms, 0535ms total)
T2FC8 001:115 JLINK_IsHalted()  returns FALSE (0001ms, 0535ms total)
T2FC8 001:117 JLINK_IsHalted()  returns FALSE (0000ms, 0534ms total)
T2FC8 001:118 JLINK_IsHalted()  returns FALSE (0001ms, 0535ms total)
T2FC8 001:120 JLINK_IsHalted()  returns FALSE (0001ms, 0535ms total)
T2FC8 001:122 JLINK_IsHalted()  returns FALSE (0001ms, 0535ms total)
T2FC8 001:124 JLINK_IsHalted()  returns FALSE (0001ms, 0535ms total)
T2FC8 001:126 JLINK_IsHalted()  returns FALSE (0001ms, 0535ms total)
T2FC8 001:128 JLINK_IsHalted()  returns FALSE (0001ms, 0535ms total)
T2FC8 001:130 JLINK_IsHalted()  returns FALSE (0001ms, 0535ms total)
T2FC8 001:132 JLINK_IsHalted()  returns FALSE (0001ms, 0536ms total)
T2FC8 001:134 JLINK_IsHalted()  returns FALSE (0001ms, 0536ms total)
T2FC8 001:136 JLINK_IsHalted()  returns FALSE (0001ms, 0536ms total)
T2FC8 001:138 JLINK_IsHalted()  returns FALSE (0001ms, 0536ms total)
T2FC8 001:140 JLINK_IsHalted() -- CPU_ReadMem(2 bytes @ 0x20000000)  returns TRUE (0004ms, 0539ms total)
T2FC8 001:144 JLINK_ReadReg(R15 (PC))  returns 0x20000000 (0000ms, 0535ms total)
T2FC8 001:144 JLINK_ClrBPEx(BPHandle = 0x0000000A)  returns 0x00 (0000ms, 0535ms total)
T2FC8 001:144 JLINK_ReadReg(R0)  returns 0x00000000 (0000ms, 0535ms total)
T2FC8 001:145 JLINK_WriteMem(0x20000164, 0x0400 Bytes, ...) - Data: 30 F8 11 00 01 28 27 DB 07 F0 98 FB 06 20 FF F7 ... -- CPU_WriteMem(1024 bytes @ 0x20000164)  returns 0x400 (0007ms, 0542ms total)
T2FC8 001:152 JLINK_WriteReg(R0, 0x08001800)  returns 0x00 (0000ms, 0542ms total)
T2FC8 001:152 JLINK_WriteReg(R1, 0x00000400)  returns 0x00 (0000ms, 0542ms total)
T2FC8 001:152 JLINK_WriteReg(R2, 0x20000164)  returns 0x00 (0000ms, 0542ms total)
T2FC8 001:152 JLINK_WriteReg(R3, 0x00000000)  returns 0x00 (0000ms, 0542ms total)
T2FC8 001:152 JLINK_WriteReg(R4, 0x00000000)  returns 0x00 (0000ms, 0542ms total)
T2FC8 001:152 JLINK_WriteReg(R5, 0x00000000)  returns 0x00 (0000ms, 0542ms total)
T2FC8 001:152 JLINK_WriteReg(R6, 0x00000000)  returns 0x00 (0000ms, 0542ms total)
T2FC8 001:152 JLINK_WriteReg(R7, 0x00000000)  returns 0x00 (0000ms, 0542ms total)
T2FC8 001:152 JLINK_WriteReg(R8, 0x00000000)  returns 0x00 (0000ms, 0542ms total)
T2FC8 001:152 JLINK_WriteReg(R9, 0x20000160)  returns 0x00 (0000ms, 0542ms total)
T2FC8 001:152 JLINK_WriteReg(R10, 0x00000000)  returns 0x00 (0000ms, 0542ms total)
T2FC8 001:152 JLINK_WriteReg(R11, 0x00000000)  returns 0x00 (0000ms, 0542ms total)
T2FC8 001:152 JLINK_WriteReg(R12, 0x00000000)  returns 0x00 (0000ms, 0542ms total)
T2FC8 001:152 JLINK_WriteReg(R13 (SP), 0x20000800)  returns 0x00 (0000ms, 0542ms total)
T2FC8 001:152 JLINK_WriteReg(R14, 0x20000001)  returns 0x00 (0000ms, 0542ms total)
T2FC8 001:152 JLINK_WriteReg(R15 (PC), 0x200000F4)  returns 0x00 (0000ms, 0542ms total)
T2FC8 001:152 JLINK_WriteReg(XPSR, 0x01000000)  returns 0x00 (0000ms, 0542ms total)
T2FC8 001:152 JLINK_WriteReg(MSP, 0x20000800)  returns 0x00 (0000ms, 0542ms total)
T2FC8 001:152 JLINK_WriteReg(PSP, 0x20000800)  returns 0x00 (0000ms, 0542ms total)
T2FC8 001:153 JLINK_WriteReg(CFBP, 0x00000000)  returns 0x00 (0000ms, 0543ms total)
T2FC8 001:153 JLINK_SetBPEx(Addr = 0x20000000, Type = 0xFFFFFFF2)  returns 0x0000000B (0000ms, 0543ms total)
T2FC8 001:153 JLINK_Go() -- CPU_ReadMem(4 bytes @ 0xE0001000) (0003ms, 0546ms total)
T2FC8 001:156 JLINK_IsHalted()  returns FALSE (0001ms, 0547ms total)
T2FC8 001:162 JLINK_IsHalted()  returns FALSE (0001ms, 0547ms total)
T2FC8 001:164 JLINK_IsHalted()  returns FALSE (0000ms, 0546ms total)
T2FC8 001:165 JLINK_IsHalted()  returns FALSE (0000ms, 0546ms total)
T2FC8 001:166 JLINK_IsHalted()  returns FALSE (0000ms, 0546ms total)
T2FC8 001:167 JLINK_IsHalted()  returns FALSE (0000ms, 0546ms total)
T2FC8 001:168 JLINK_IsHalted()  returns FALSE (0000ms, 0546ms total)
T2FC8 001:169 JLINK_IsHalted()  returns FALSE (0000ms, 0546ms total)
T2FC8 001:170 JLINK_IsHalted()  returns FALSE (0000ms, 0546ms total)
T2FC8 001:171 JLINK_IsHalted()  returns FALSE (0000ms, 0546ms total)
T2FC8 001:172 JLINK_IsHalted()  returns FALSE (0000ms, 0546ms total)
T2FC8 001:173 JLINK_IsHalted()  returns FALSE (0000ms, 0546ms total)
T2FC8 001:174 JLINK_IsHalted()  returns FALSE (0000ms, 0546ms total)
T2FC8 001:175 JLINK_IsHalted()  returns FALSE (0000ms, 0546ms total)
T2FC8 001:176 JLINK_IsHalted()  returns FALSE (0000ms, 0546ms total)
T2FC8 001:181 JLINK_IsHalted()  returns FALSE (0001ms, 0547ms total)
T2FC8 001:183 JLINK_IsHalted()  returns FALSE (0001ms, 0547ms total)
T2FC8 001:185 JLINK_IsHalted()  returns FALSE (0001ms, 0547ms total)
T2FC8 001:187 JLINK_IsHalted() -- CPU_ReadMem(2 bytes @ 0x20000000)  returns TRUE (0004ms, 0550ms total)
T2FC8 001:191 JLINK_ReadReg(R15 (PC))  returns 0x20000000 (0000ms, 0546ms total)
T2FC8 001:191 JLINK_ClrBPEx(BPHandle = 0x0000000B)  returns 0x00 (0000ms, 0546ms total)
T2FC8 001:191 JLINK_ReadReg(R0)  returns 0x00000000 (0000ms, 0546ms total)
T2FC8 001:192 JLINK_WriteMem(0x20000164, 0x0400 Bytes, ...) - Data: 00 20 11 4A 14 32 12 68 0A 40 0A B1 01 20 00 E0 ... -- CPU_WriteMem(1024 bytes @ 0x20000164)  returns 0x400 (0007ms, 0553ms total)
T2FC8 001:199 JLINK_WriteReg(R0, 0x08001C00)  returns 0x00 (0000ms, 0553ms total)
T2FC8 001:199 JLINK_WriteReg(R1, 0x00000400)  returns 0x00 (0000ms, 0553ms total)
T2FC8 001:199 JLINK_WriteReg(R2, 0x20000164)  returns 0x00 (0000ms, 0553ms total)
T2FC8 001:199 JLINK_WriteReg(R3, 0x00000000)  returns 0x00 (0000ms, 0553ms total)
T2FC8 001:199 JLINK_WriteReg(R4, 0x00000000)  returns 0x00 (0000ms, 0553ms total)
T2FC8 001:199 JLINK_WriteReg(R5, 0x00000000)  returns 0x00 (0000ms, 0553ms total)
T2FC8 001:199 JLINK_WriteReg(R6, 0x00000000)  returns 0x00 (0000ms, 0553ms total)
T2FC8 001:199 JLINK_WriteReg(R7, 0x00000000)  returns 0x00 (0000ms, 0553ms total)
T2FC8 001:199 JLINK_WriteReg(R8, 0x00000000)  returns 0x00 (0000ms, 0553ms total)
T2FC8 001:199 JLINK_WriteReg(R9, 0x20000160)  returns 0x00 (0000ms, 0553ms total)
T2FC8 001:199 JLINK_WriteReg(R10, 0x00000000)  returns 0x00 (0000ms, 0553ms total)
T2FC8 001:199 JLINK_WriteReg(R11, 0x00000000)  returns 0x00 (0000ms, 0553ms total)
T2FC8 001:199 JLINK_WriteReg(R12, 0x00000000)  returns 0x00 (0000ms, 0553ms total)
T2FC8 001:199 JLINK_WriteReg(R13 (SP), 0x20000800)  returns 0x00 (0000ms, 0553ms total)
T2FC8 001:199 JLINK_WriteReg(R14, 0x20000001)  returns 0x00 (0000ms, 0553ms total)
T2FC8 001:199 JLINK_WriteReg(R15 (PC), 0x200000F4)  returns 0x00 (0000ms, 0553ms total)
T2FC8 001:199 JLINK_WriteReg(XPSR, 0x01000000)  returns 0x00 (0000ms, 0553ms total)
T2FC8 001:199 JLINK_WriteReg(MSP, 0x20000800)  returns 0x00 (0000ms, 0553ms total)
T2FC8 001:199 JLINK_WriteReg(PSP, 0x20000800)  returns 0x00 (0000ms, 0553ms total)
T2FC8 001:199 JLINK_WriteReg(CFBP, 0x00000000)  returns 0x00 (0000ms, 0553ms total)
T2FC8 001:199 JLINK_SetBPEx(Addr = 0x20000000, Type = 0xFFFFFFF2)  returns 0x0000000C (0000ms, 0553ms total)
T2FC8 001:199 JLINK_Go() -- CPU_ReadMem(4 bytes @ 0xE0001000) (0004ms, 0557ms total)
T2FC8 001:203 JLINK_IsHalted()  returns FALSE (0001ms, 0558ms total)
T2FC8 001:209 JLINK_IsHalted()  returns FALSE (0001ms, 0558ms total)
T2FC8 001:211 JLINK_IsHalted()  returns FALSE (0001ms, 0559ms total)
T2FC8 001:213 JLINK_IsHalted()  returns FALSE (0001ms, 0559ms total)
T2FC8 001:215 JLINK_IsHalted()  returns FALSE (0001ms, 0559ms total)
T2FC8 001:217 JLINK_IsHalted()  returns FALSE (0001ms, 0559ms total)
T2FC8 001:219 JLINK_IsHalted()  returns FALSE (0001ms, 0559ms total)
T2FC8 001:221 JLINK_IsHalted()  returns FALSE (0001ms, 0559ms total)
T2FC8 001:223 JLINK_IsHalted()  returns FALSE (0001ms, 0559ms total)
T2FC8 001:225 JLINK_IsHalted()  returns FALSE (0001ms, 0559ms total)
T2FC8 001:227 JLINK_IsHalted()  returns FALSE (0001ms, 0559ms total)
T2FC8 001:229 JLINK_IsHalted()  returns FALSE (0001ms, 0559ms total)
T2FC8 001:231 JLINK_IsHalted()  returns FALSE (0001ms, 0559ms total)
T2FC8 001:233 JLINK_IsHalted()  returns FALSE (0001ms, 0559ms total)
T2FC8 001:235 JLINK_IsHalted() -- CPU_ReadMem(2 bytes @ 0x20000000)  returns TRUE (0004ms, 0562ms total)
T2FC8 001:239 JLINK_ReadReg(R15 (PC))  returns 0x20000000 (0000ms, 0558ms total)
T2FC8 001:239 JLINK_ClrBPEx(BPHandle = 0x0000000C)  returns 0x00 (0000ms, 0558ms total)
T2FC8 001:239 JLINK_ReadReg(R0)  returns 0x00000000 (0000ms, 0558ms total)
T2FC8 001:240 JLINK_WriteMem(0x20000164, 0x0400 Bytes, ...) - Data: 42 F0 04 02 4F F0 20 43 C3 F8 80 20 14 E0 10 28 ... -- CPU_WriteMem(1024 bytes @ 0x20000164)  returns 0x400 (0007ms, 0565ms total)
T2FC8 001:247 JLINK_WriteReg(R0, 0x08002000)  returns 0x00 (0000ms, 0565ms total)
T2FC8 001:247 JLINK_WriteReg(R1, 0x00000400)  returns 0x00 (0000ms, 0565ms total)
T2FC8 001:247 JLINK_WriteReg(R2, 0x20000164)  returns 0x00 (0000ms, 0565ms total)
T2FC8 001:247 JLINK_WriteReg(R3, 0x00000000)  returns 0x00 (0000ms, 0565ms total)
T2FC8 001:247 JLINK_WriteReg(R4, 0x00000000)  returns 0x00 (0000ms, 0565ms total)
T2FC8 001:247 JLINK_WriteReg(R5, 0x00000000)  returns 0x00 (0000ms, 0565ms total)
T2FC8 001:247 JLINK_WriteReg(R6, 0x00000000)  returns 0x00 (0000ms, 0565ms total)
T2FC8 001:247 JLINK_WriteReg(R7, 0x00000000)  returns 0x00 (0000ms, 0565ms total)
T2FC8 001:247 JLINK_WriteReg(R8, 0x00000000)  returns 0x00 (0000ms, 0565ms total)
T2FC8 001:247 JLINK_WriteReg(R9, 0x20000160)  returns 0x00 (0000ms, 0565ms total)
T2FC8 001:247 JLINK_WriteReg(R10, 0x00000000)  returns 0x00 (0000ms, 0565ms total)
T2FC8 001:247 JLINK_WriteReg(R11, 0x00000000)  returns 0x00 (0000ms, 0565ms total)
T2FC8 001:247 JLINK_WriteReg(R12, 0x00000000)  returns 0x00 (0000ms, 0565ms total)
T2FC8 001:247 JLINK_WriteReg(R13 (SP), 0x20000800)  returns 0x00 (0000ms, 0565ms total)
T2FC8 001:247 JLINK_WriteReg(R14, 0x20000001)  returns 0x00 (0000ms, 0565ms total)
T2FC8 001:247 JLINK_WriteReg(R15 (PC), 0x200000F4)  returns 0x00 (0000ms, 0565ms total)
T2FC8 001:247 JLINK_WriteReg(XPSR, 0x01000000)  returns 0x00 (0000ms, 0565ms total)
T2FC8 001:247 JLINK_WriteReg(MSP, 0x20000800)  returns 0x00 (0000ms, 0565ms total)
T2FC8 001:247 JLINK_WriteReg(PSP, 0x20000800)  returns 0x00 (0001ms, 0566ms total)
T2FC8 001:248 JLINK_WriteReg(CFBP, 0x00000000)  returns 0x00 (0000ms, 0566ms total)
T2FC8 001:248 JLINK_SetBPEx(Addr = 0x20000000, Type = 0xFFFFFFF2)  returns 0x0000000D (0000ms, 0566ms total)
T2FC8 001:248 JLINK_Go() -- CPU_ReadMem(4 bytes @ 0xE0001000) (0003ms, 0569ms total)
T2FC8 001:251 JLINK_IsHalted()  returns FALSE (0001ms, 0570ms total)
T2FC8 001:257 JLINK_IsHalted()  returns FALSE (0001ms, 0570ms total)
T2FC8 001:259 JLINK_IsHalted()  returns FALSE (0001ms, 0570ms total)
T2FC8 001:261 JLINK_IsHalted()  returns FALSE (0001ms, 0570ms total)
T2FC8 001:263 JLINK_IsHalted()  returns FALSE (0001ms, 0570ms total)
T2FC8 001:265 JLINK_IsHalted()  returns FALSE (0001ms, 0570ms total)
T2FC8 001:267 JLINK_IsHalted()  returns FALSE (0001ms, 0570ms total)
T2FC8 001:269 JLINK_IsHalted()  returns FALSE (0001ms, 0570ms total)
T2FC8 001:271 JLINK_IsHalted()  returns FALSE (0001ms, 0570ms total)
T2FC8 001:273 JLINK_IsHalted()  returns FALSE (0001ms, 0570ms total)
T2FC8 001:275 JLINK_IsHalted()  returns FALSE (0001ms, 0570ms total)
T2FC8 001:277 JLINK_IsHalted()  returns FALSE (0001ms, 0570ms total)
T2FC8 001:279 JLINK_IsHalted()  returns FALSE (0001ms, 0570ms total)
T2FC8 001:281 JLINK_IsHalted()  returns FALSE (0001ms, 0570ms total)
T2FC8 001:283 JLINK_IsHalted() -- CPU_ReadMem(2 bytes @ 0x20000000)  returns TRUE (0004ms, 0573ms total)
T2FC8 001:287 JLINK_ReadReg(R15 (PC))  returns 0x20000000 (0000ms, 0569ms total)
T2FC8 001:287 JLINK_ClrBPEx(BPHandle = 0x0000000D)  returns 0x00 (0000ms, 0569ms total)
T2FC8 001:287 JLINK_ReadReg(R0)  returns 0x00000000 (0000ms, 0569ms total)
T2FC8 001:288 JLINK_WriteMem(0x20000164, 0x0400 Bytes, ...) - Data: 04 04 91 F8 03 C0 BC F1 28 0F 05 D1 00 F1 08 0C ... -- CPU_WriteMem(1024 bytes @ 0x20000164)  returns 0x400 (0007ms, 0576ms total)
T2FC8 001:295 JLINK_WriteReg(R0, 0x08002400)  returns 0x00 (0000ms, 0576ms total)
T2FC8 001:295 JLINK_WriteReg(R1, 0x00000400)  returns 0x00 (0000ms, 0576ms total)
T2FC8 001:295 JLINK_WriteReg(R2, 0x20000164)  returns 0x00 (0000ms, 0576ms total)
T2FC8 001:295 JLINK_WriteReg(R3, 0x00000000)  returns 0x00 (0000ms, 0576ms total)
T2FC8 001:295 JLINK_WriteReg(R4, 0x00000000)  returns 0x00 (0000ms, 0576ms total)
T2FC8 001:295 JLINK_WriteReg(R5, 0x00000000)  returns 0x00 (0000ms, 0576ms total)
T2FC8 001:295 JLINK_WriteReg(R6, 0x00000000)  returns 0x00 (0000ms, 0576ms total)
T2FC8 001:295 JLINK_WriteReg(R7, 0x00000000)  returns 0x00 (0000ms, 0576ms total)
T2FC8 001:295 JLINK_WriteReg(R8, 0x00000000)  returns 0x00 (0000ms, 0576ms total)
T2FC8 001:295 JLINK_WriteReg(R9, 0x20000160)  returns 0x00 (0000ms, 0576ms total)
T2FC8 001:295 JLINK_WriteReg(R10, 0x00000000)  returns 0x00 (0000ms, 0576ms total)
T2FC8 001:295 JLINK_WriteReg(R11, 0x00000000)  returns 0x00 (0000ms, 0576ms total)
T2FC8 001:295 JLINK_WriteReg(R12, 0x00000000)  returns 0x00 (0000ms, 0576ms total)
T2FC8 001:295 JLINK_WriteReg(R13 (SP), 0x20000800)  returns 0x00 (0000ms, 0576ms total)
T2FC8 001:295 JLINK_WriteReg(R14, 0x20000001)  returns 0x00 (0000ms, 0576ms total)
T2FC8 001:295 JLINK_WriteReg(R15 (PC), 0x200000F4)  returns 0x00 (0000ms, 0576ms total)
T2FC8 001:295 JLINK_WriteReg(XPSR, 0x01000000)  returns 0x00 (0000ms, 0576ms total)
T2FC8 001:295 JLINK_WriteReg(MSP, 0x20000800)  returns 0x00 (0000ms, 0576ms total)
T2FC8 001:295 JLINK_WriteReg(PSP, 0x20000800)  returns 0x00 (0000ms, 0576ms total)
T2FC8 001:295 JLINK_WriteReg(CFBP, 0x00000000)  returns 0x00 (0000ms, 0576ms total)
T2FC8 001:296 JLINK_SetBPEx(Addr = 0x20000000, Type = 0xFFFFFFF2)  returns 0x0000000E (0000ms, 0577ms total)
T2FC8 001:296 JLINK_Go() -- CPU_ReadMem(4 bytes @ 0xE0001000) (0003ms, 0580ms total)
T2FC8 001:299 JLINK_IsHalted()  returns FALSE (0001ms, 0581ms total)
T2FC8 001:304 JLINK_IsHalted()  returns FALSE (0001ms, 0581ms total)
T2FC8 001:306 JLINK_IsHalted()  returns FALSE (0001ms, 0581ms total)
T2FC8 001:308 JLINK_IsHalted()  returns FALSE (0001ms, 0581ms total)
T2FC8 001:310 JLINK_IsHalted()  returns FALSE (0001ms, 0581ms total)
T2FC8 001:312 JLINK_IsHalted()  returns FALSE (0001ms, 0581ms total)
T2FC8 001:314 JLINK_IsHalted()  returns FALSE (0001ms, 0581ms total)
T2FC8 001:316 JLINK_IsHalted()  returns FALSE (0001ms, 0581ms total)
T2FC8 001:318 JLINK_IsHalted()  returns FALSE (0001ms, 0581ms total)
T2FC8 001:320 JLINK_IsHalted()  returns FALSE (0001ms, 0581ms total)
T2FC8 001:322 JLINK_IsHalted()  returns FALSE (0001ms, 0581ms total)
T2FC8 001:324 JLINK_IsHalted()  returns FALSE (0001ms, 0581ms total)
T2FC8 001:326 JLINK_IsHalted()  returns FALSE (0001ms, 0581ms total)
T2FC8 001:328 JLINK_IsHalted()  returns FALSE (0001ms, 0581ms total)
